Freq.	V(out)
1.00000000000000e+00	(-4.67500807160758e+01dB,-2.58610858275727e+00°)
1.02329299228075e+00	(-4.63504696135752e+01dB,-2.64627060247114e+00°)
1.04712854805090e+00	(-4.59508768020217e+01dB,-2.70782853573318e+00°)
1.07151930523761e+00	(-4.55513031398570e+01dB,-2.77081450958029e+00°)
1.09647819614318e+00	(-4.51517495256356e+01dB,-2.83526137177000e+00°)
1.12201845430196e+00	(-4.47522168998814e+01dB,-2.90120270560944e+00°)
1.14815362149688e+00	(-4.43527062470301e+01dB,-2.96867284499152e+00°)
1.17489755493953e+00	(-4.39532185974587e+01dB,-3.03770688963369e+00°)
1.20226443461741e+00	(-4.35537550296072e+01dB,-3.10834072051344e+00°)
1.23026877081238e+00	(-4.31543166721958e+01dB,-3.18061101549441e+00°)
1.25892541179417e+00	(-4.27549047065427e+01dB,-3.25455526513550e+00°)
1.28824955169313e+00	(-4.23555203689855e+01dB,-3.33021178867491e+00°)
1.31825673855641e+00	(-4.19561649534115e+01dB,-3.40761975017965e+00°)
1.34896288259165e+00	(-4.15568398139013e+01dB,-3.48681917485009e+00°)
1.38038426460288e+00	(-4.11575463674904e+01dB,-3.56785096546786e+00°)
1.41253754462275e+00	(-4.07582860970537e+01dB,-3.65075691897416e+00°)
1.44543977074593e+00	(-4.03590605543181e+01dB,-3.73557974316401e+00°)
1.47910838816821e+00	(-3.99598713630090e+01dB,-3.82236307348069e+00°)
1.51356124843621e+00	(-3.95607202221345e+01dB,-3.91115148989276e+00°)
1.54881661891248e+00	(-3.91616089094153e+01dB,-4.00199053383450e+00°)
1.58489319246111e+00	(-3.87625392848643e+01dB,-4.09492672518870e+00°)
1.62181009735893e+00	(-3.83635132945229e+01dB,-4.19000757928877e+00°)
1.65958690743756e+00	(-3.79645329743595e+01dB,-4.28728162391497e+00°)
1.69824365246174e+00	(-3.75656004543375e+01dB,-4.38679841625735e+00°)
1.73780082874937e+00	(-3.71667179626581e+01dB,-4.48860855981563e+00°)
1.77827941003892e+00	(-3.67678878301865e+01dB,-4.59276372120342e+00°)
1.81970085860998e+00	(-3.63691124950661e+01dB,-4.69931664682189e+00°)
1.86208713666287e+00	(-3.59703945075302e+01dB,-4.80832117936446e+00°)
1.90546071796325e+00	(-3.55717365349164e+01dB,-4.91983227411157e+00°)
1.94984459975804e+00	(-3.51731413668928e+01dB,-5.03390601497078e+00°)
1.99526231496888e+00	(-3.47746119209023e+01dB,-5.15059963021418e+00°)
2.04173794466953e+00	(-3.43761512478338e+01dB,-5.26997150786131e+00°)
2.08929613085404e+00	(-3.39777625379273e+01dB,-5.39208121065164e+00°)
2.13796208950223e+00	(-3.35794491269215e+01dB,-5.51698949054661e+00°)
2.18776162394955e+00	(-3.31812145024515e+01dB,-5.64475830269667e+00°)
2.23872113856834e+00	(-3.27830623107054e+01dB,-5.77545081880395e+00°)
2.29086765276777e+00	(-3.23849963633470e+01dB,-5.90913143980628e+00°)
2.34422881531992e+00	(-3.19870206447144e+01dB,-6.04586580780283e+00°)
2.39883291901949e+00	(-3.15891393193009e+01dB,-6.18572081713620e+00°)
2.45470891568503e+00	(-3.11913567395276e+01dB,-6.32876462453963e+00°)
2.51188643150958e+00	(-3.07936774538164e+01dB,-6.47506665825202e+00°)
2.57039578276886e+00	(-3.03961062149695e+01dB,-6.62469762599671e+00°)
2.63026799189538e+00	(-2.99986479888653e+01dB,-6.77772952171319e+00°)
2.69153480392691e+00	(-2.96013079634773e+01dB,-6.93423563092353e+00°)
2.75422870333816e+00	(-2.92040915582238e+01dB,-7.09429053460791e+00°)
2.81838293126445e+00	(-2.88070044336549e+01dB,-7.25797011145565e+00°)
2.88403150312660e+00	(-2.84100525014854e+01dB,-7.42535153834963e+00°)
2.95120922666638e+00	(-2.80132419349763e+01dB,-7.59651328893384e+00°)
3.01995172040201e+00	(-2.76165791796752e+01dB,-7.77153513010425e+00°)
3.09029543251359e+00	(-2.72200709645164e+01dB,-7.95049811625428e+00°)
3.16227766016837e+00	(-2.68237243132874e+01dB,-8.13348458109630e+00°)
3.23593656929628e+00	(-2.64275465564649e+01dB,-8.32057812687062e+00°)
3.31131121482591e+00	(-2.60315453434224e+01dB,-8.51186361074304e+00°)
3.38844156139202e+00	(-2.56357286550101e+01dB,-8.70742712818176e+00°)
3.46736850452531e+00	(-2.52401048165093e+01dB,-8.90735599309314e+00°)
3.54813389233575e+00	(-2.48446825109574e+01dB,-9.11173871448518e+00°)
3.63078054770101e+00	(-2.44494707928426e+01dB,-9.32066496941596e+00°)
3.71535229097172e+00	(-2.40544791021629e+01dB,-9.53422557197328e+00°)
3.80189396320560e+00	(-2.36597172788425e+01dB,-9.75251243801985e+00°)
3.89045144994280e+00	(-2.32651955774982e+01dB,-9.97561854542726e+00°)
3.98107170553496e+00	(-2.28709246825435e+01dB,-1.02036378895105e+01°)
4.07380277804112e+00	(-2.24769157236170e+01dB,-1.04366654333629e+01°)
4.16869383470335e+00	(-2.20831802913199e+01dB,-1.06747970527823e+01°)
4.26579518801592e+00	(-2.16897304532416e+01dB,-1.09181294754648e+01°)
4.36515832240165e+00	(-2.12965787702516e+01dB,-1.11667602141380e+01°)
4.46683592150962e+00	(-2.09037383130307e+01dB,-1.14207874932895e+01°)
4.57088189614874e+00	(-2.05112226788117e+01dB,-1.16803101691436e+01°)
4.67735141287197e+00	(-2.01190460082941e+01dB,-1.19454276425282e+01°)
4.78630092322637e+00	(-1.97272230026954e+01dB,-1.22162397642673e+01°)
4.89778819368445e+00	(-1.93357689408930e+01dB,-1.24928467327314e+01°)
5.01187233627271e+00	(-1.89446996966087e+01dB,-1.27753489831728e+01°)
5.12861383991364e+00	(-1.85540317555810e+01dB,-1.30638470684717e+01°)
5.24807460249771e+00	(-1.81637822326644e+01dB,-1.33584415309194e+01°)
5.37031796370252e+00	(-1.77739688887891e+01dB,-1.36592327646690e+01°)
5.49540873857623e+00	(-1.73846101477069e+01dB,-1.39663208684879e+01°)
5.62341325190348e+00	(-1.69957251124449e+01dB,-1.42798054884573e+01°)
5.75439937337156e+00	(-1.66073335813770e+01dB,-1.45997856502747e+01°)
5.88843655355588e+00	(-1.62194560638209e+01dB,-1.49263595808330e+01°)
6.02559586074356e+00	(-1.58321137950559e+01dB,-1.52596245187701e+01°)
6.16595001861481e+00	(-1.54453287506520e+01dB,-1.55996765137076e+01°)
6.30957344480192e+00	(-1.50591236599906e+01dB,-1.59466102139287e+01°)
6.45654229034654e+00	(-1.46735220188507e+01dB,-1.63005186422803e+01°)
6.60693448007594e+00	(-1.42885481009238e+01dB,-1.66614929601274e+01°)
6.76082975391980e+00	(-1.39042269681144e+01dB,-1.70296222192361e+01°)
6.91830970918935e+00	(-1.35205844794730e+01dB,-1.74049931015152e+01°)
7.07945784384136e+00	(-1.31376472986015e+01dB,-1.77876896466127e+01°)
7.24435960074988e+00	(-1.27554428993619e+01dB,-1.81777929674282e+01°)
7.41310241300916e+00	(-1.23739995697128e+01dB,-1.85753809536866e+01°)
7.58577575029182e+00	(-1.19933464134894e+01dB,-1.89805279637987e+01°)
7.76247116628690e+00	(-1.16135133499382e+01dB,-1.93933045053344e+01°)
7.94328234724279e+00	(-1.12345311108103e+01dB,-1.98137769045331e+01°)
8.12830516164097e+00	(-1.08564312348134e+01dB,-2.02420069653919e+01°)
8.31763771102669e+00	(-1.04792460592191e+01dB,-2.06780516189897e+01°)
8.51138038202374e+00	(-1.01030087084189e+01dB,-2.11219625638353e+01°)
8.70963589956078e+00	(-9.72775307922335e+00dB,-2.15737858981661e+01°)
8.91250938133743e+00	(-9.35351382269727e+00dB,-2.20335617452650e+01°)
9.12010839355907e+00	(-8.98032632233001e+00dB,-2.25013238730187e+01°)
9.33254300796988e+00	(-8.60822666834236e+00dB,-2.29770993090944e+01°)
9.54992586021433e+00	(-8.23725162794055e+00dB,-2.34609079532761e+01°)
9.77237220955808e+00	(-7.86743861133755e+00dB,-2.39527621886669e+01°)
9.99999999999997e+00	(-7.49882563337474e+00dB,-2.44526664936314e+01°)
1.02329299228075e+01	(-7.13145127059301e+00dB,-2.49606170565203e+01°)
1.04712854805090e+01	(-6.76535461362124e+00dB,-2.54766013953863e+01°)
1.07151930523760e+01	(-6.40057521477234e+00dB,-2.60005979850603e+01°)
1.09647819614318e+01	(-6.03715303076280e+00dB,-2.65325758941163e+01°)
1.12201845430196e+01	(-5.67512836050051e+00dB,-2.70724944343942e+01°)
1.14815362149688e+01	(-5.31454177791810e+00dB,-2.76203028258886e+01°)
1.17489755493953e+01	(-4.95543405986521e+00dB,-2.81759398799264e+01°)
1.20226443461741e+01	(-4.59784610911156e+00dB,-2.87393337036583e+01°)
1.23026877081238e+01	(-4.24181887255576e+00dB,-2.93104014289643e+01°)
1.25892541179416e+01	(-3.88739325477920e+00dB,-2.98890489689293e+01°)
1.28824955169313e+01	(-3.53461002713241e+00dB,-3.04751708050651e+01°)
1.31825673855640e+01	(-3.18350973259109e+00dB,-3.10686498084502e+01°)
1.34896288259165e+01	(-2.83413258667024e+00dB,-3.16693570979145e+01°)
1.38038426460288e+01	(-2.48651837473783e+00dB,-3.22771519383169e+01°)
1.41253754462275e+01	(-2.14070634612225e+00dB,-3.28918816818435e+01°)
1.44543977074592e+01	(-1.79673510546059e+00dB,-3.35133817550945e+01°)
1.47910838816820e+01	(-1.45464250178697e+00dB,-3.41414756945208e+01°)
1.51356124843620e+01	(-1.11446551590992e+00dB,-3.47759752325284e+01°)
1.54881661891248e+01	(-7.76240146675048e-01dB,-3.54166804362743e+01°)
1.58489319246111e+01	(-4.40001296753139e-01dB,-3.60633799008465e+01°)
1.62181009735892e+01	(-1.05782658632922e-01dB,-3.67158509981474e+01°)
1.65958690743755e+01	(2.26383398468638e-01dB,-3.73738601823876e+01°)
1.69824365246174e+01	(5.56465940037894e-01dB,-3.80371633526518e+01°)
1.73780082874937e+01	(8.84435575277099e-01dB,-3.87055062725238e+01°)
1.77827941003892e+01	(1.21026456292466e+00dB,-3.93786250462557e+01°)
1.81970085860998e+01	(1.53392691310535e+00dB,-4.00562466504502e+01°)
1.86208713666286e+01	(1.85539848443786e+00dB,-4.07380895196931e+01°)
1.90546071796324e+01	(2.17465707564115e+00dB,-4.14238641840416e+01°)
1.94984459975804e+01	(2.49168251090484e+00dB,-4.21132739557411e+01°)
1.99526231496887e+01	(2.80645671832216e+00dB,-4.28060156620298e+01°)
2.04173794466952e+01	(3.11896380072684e+00dB,-4.35017804203903e+01°)
2.08929613085403e+01	(3.42919009832718e+00dB,-4.42002544521412e+01°)
2.13796208950222e+01	(3.73712424259110e+00dB,-4.49011199298319e+01°)
2.18776162394954e+01	(4.04275720090421e+00dB,-4.56040558535182e+01°)
2.23872113856833e+01	(4.34608231159865e+00dB,-4.63087389506607e+01°)
2.29086765276776e+01	(4.64709530903162e+00dB,-4.70148445941155e+01°)
2.34422881531991e+01	(4.94579433847876e+00dB,-4.77220477324731e+01°)
2.39883291901948e+01	(5.24217996069774e+00dB,-4.84300238268547e+01°)
2.45470891568502e+01	(5.53625514610868e+00dB,-4.91384497882040e+01°)
2.51188643150957e+01	(5.82802525863167e+00dB,-4.98470049091035e+01°)
2.57039578276885e+01	(6.11749802931296e+00dB,-5.05553717842179e+01°)
2.63026799189537e+01	(6.40468351996197e+00dB,-5.12632372136014e+01°)
2.69153480392690e+01	(6.68959407710774e+00dB,-5.19702930833118e+01°)
2.75422870333815e+01	(6.97224427666526e+00dB,-5.26762372180460e+01°)
2.81838293126444e+01	(7.25265085977811e+00dB,-5.33807742008352e+01°)
2.88403150312659e+01	(7.53083266037325e+00dB,-5.40836161552234e+01°)
2.95120922666637e+01	(7.80681052502432e+00dB,-5.47844834857732e+01°)
3.01995172040200e+01	(8.08060722577336e+00dB,-5.54831055732116e+01°)
3.09029543251358e+01	(8.35224736660372e+00dB,-5.61792214210179e+01°)
3.16227766016837e+01	(8.62175728429151e+00dB,-5.68725802507753e+01°)
3.23593656929627e+01	(8.88916494438738e+00dB,-5.75629420441308e+01°)
3.31131121482590e+01	(9.15449983309543e+00dB,-5.82500780297458e+01°)
3.38844156139201e+01	(9.41779284582167e+00dB,-5.89337711141463e+01°)
3.46736850452530e+01	(9.67907617316108e+00dB,-5.96138162559018e+01°)
3.54813389233574e+01	(9.93838318508042e+00dB,-6.02900207830626e+01°)
3.63078054770100e+01	(1.01957483140340e+01dB,-6.09622046542624e+01°)
3.71535229097171e+01	(1.04512069377231e+01dB,-6.16302006643406e+01°)
3.80189396320559e+01	(1.07047952621754e+01dB,-6.22938545957526e+01°)
3.89045144994279e+01	(1.09565502057835e+01dB,-6.29530253174126e+01°)
3.98107170553495e+01	(1.12065092848968e+01dB,-6.36075848329463e+01°)
4.07380277804111e+01	(1.14547105015138e+01dB,-6.42574182806293e+01°)
4.16869383470333e+01	(1.17011922335741e+01dB,-6.49024238875311e+01°)
4.26579518801591e+01	(1.19459931282940e+01dB,-6.55425128805948e+01°)
4.36515832240164e+01	(1.21891519989396e+01dB,-6.61776093575444e+01°)
4.46683592150961e+01	(1.24307077253780e+01dB,-6.68076501206331e+01°)
4.57088189614873e+01	(1.26706991586906e+01dB,-6.74325844763295e+01°)
4.67735141287196e+01	(1.29091650300866e+01dB,-6.80523740040784e+01°)
4.78630092322636e+01	(1.31461438642996e+01dB,-6.86669922972871e+01°)
4.89778819368444e+01	(1.33816738976046e+01dB,-6.92764246796589e+01°)
5.01187233627270e+01	(1.36157930005474e+01dB,-6.98806678999482e+01°)
5.12861383991362e+01	(1.38485386054336e+01dB,-7.04797298081284e+01°)
5.24807460249770e+01	(1.40799476385874e+01dB,-7.10736290158684e+01°)
5.37031796370250e+01	(1.43100564573529e+01dB,-7.16623945440882e+01°)
5.49540873857622e+01	(1.45389007917770e+01dB,-7.22460654602321e+01°)
5.62341325190346e+01	(1.47665156908846e+01dB,-7.28246905077484e+01°)
5.75439937337154e+01	(1.49929354734311e+01dB,-7.33983277301049e+01°)
5.88843655355586e+01	(1.52181936829922e+01dB,-7.39670440915060e+01°)
6.02559586074355e+01	(1.54423230472354e+01dB,-7.45309150963048e+01°)
6.16595001861479e+01	(1.56653554411974e+01dB,-7.50900244089333e+01°)
6.30957344480190e+01	(1.58873218543809e+01dB,-7.56444634759993e+01°)
6.45654229034652e+01	(1.61082523614738e+01dB,-7.61943311520294e+01°)
6.60693448007593e+01	(1.63281760964838e+01dB,-7.67397333301673e+01°)
6.76082975391978e+01	(1.65471212300800e+01dB,-7.72807825789758e+01°)
6.91830970918933e+01	(1.67651149499250e+01dB,-7.78175977863303e+01°)
7.07945784384134e+01	(1.69821834437845e+01dB,-7.83503038112429e+01°)
7.24435960074986e+01	(1.71983518851992e+01dB,-7.88790311443089e+01°)
7.41310241300914e+01	(1.74136444215068e+01dB,-7.94039155773345e+01°)
7.58577575029180e+01	(1.76280841640065e+01dB,-7.99250978825713e+01°)
7.76247116628688e+01	(1.78416931800608e+01dB,-8.04427235018684e+01°)
7.94328234724277e+01	(1.80544924869396e+01dB,-8.09569422459353e+01°)
8.12830516164095e+01	(1.82665020472125e+01dB,-8.14679080038083e+01°)
8.31763771102667e+01	(1.84777407655093e+01dB,-8.19757784625169e+01°)
8.51138038202372e+01	(1.86882264864712e+01dB,-8.24807148368573e+01°)
8.70963589956076e+01	(1.88979759937271e+01dB,-8.29828816091016e+01°)
8.91250938133741e+01	(1.91070050097373e+01dB,-8.34824462783975e+01°)
9.12010839355905e+01	(1.93153281963567e+01dB,-8.39795791195472e+01°)
9.33254300796986e+01	(1.95229591559775e+01dB,-8.44744529507959e+01°)
9.54992586021431e+01	(1.97299104331235e+01dB,-8.49672429102054e+01°)
9.77237220955805e+01	(1.99361935163747e+01dB,-8.54581262401423e+01°)
9.99999999999995e+01	(2.01418188405139e+01dB,-8.59472820793681e+01°)
1.02329299228075e+02	(2.03467957887929e+01dB,-8.64348912621801e+01°)
1.04712854805089e+02	(2.05511326952286e+01dB,-8.69211361240221e+01°)
1.07151930523760e+02	(2.07548368468475e+01dB,-8.74062003129524e+01°)
1.09647819614318e+02	(2.09579144858053e+01dB,-8.78902686063360e+01°)
1.12201845430196e+02	(2.11603708113204e+01dB,-8.83735267321035e+01°)
1.14815362149688e+02	(2.13622099813664e+01dB,-8.88561611939057e+01°)
1.17489755493952e+02	(2.15634351140791e+01dB,-8.93383590994745e+01°)
1.20226443461741e+02	(2.17640482888437e+01dB,-8.98203079914936e+01°)
1.23026877081237e+02	(2.19640505470338e+01dB,-9.03021956802707e+01°)
1.25892541179416e+02	(2.21634418923859e+01dB,-9.07842100774974e+01°)
1.28824955169313e+02	(2.23622212910000e+01dB,-9.12665390303814e+01°)
1.31825673855640e+02	(2.25603866709659e+01dB,-9.17493701554313e+01°)
1.34896288259165e+02	(2.27579349216248e+01dB,-9.22328906711781e+01°)
1.38038426460288e+02	(2.29548618924829e+01dB,-9.27172872291199e+01°)
1.41253754462275e+02	(2.31511623918050e+01dB,-9.32027457421819e+01°)
1.44543977074592e+02	(2.33468301849210e+01dB,-9.36894512099936e+01°)
1.47910838816820e+02	(2.35418579922932e+01dB,-9.41775875402963e+01°)
1.51356124843620e+02	(2.37362374873948e+01dB,-9.46673373658073e+01°)
1.54881661891247e+02	(2.39299592944644e+01dB,-9.51588818558848e+01°)
1.58489319246110e+02	(2.41230129862074e+01dB,-9.56524005223596e+01°)
1.62181009735892e+02	(2.43153870815269e+01dB,-9.61480710189213e+01°)
1.65958690743755e+02	(2.45070690433736e+01dB,-9.66460689334775e+01°)
1.69824365246173e+02	(2.46980452768160e+01dB,-9.71465675729351e+01°)
1.73780082874936e+02	(2.48883011274410e+01dB,-9.76497377398912e+01°)
1.77827941003891e+02	(2.50778208802035e+01dB,-9.81557475007609e+01°)
1.81970085860997e+02	(2.52665877588565e+01dB,-9.86647619449203e+01°)
1.86208713666286e+02	(2.54545839260971e+01dB,-9.91769429344918e+01°)
1.90546071796323e+02	(2.56417904845805e+01dB,-9.96924488444623e+01°)
1.94984459975803e+02	(2.58281874789561e+01dB,-1.00211434292888e+02°)
1.99526231496887e+02	(2.60137538990943e+01dB,-1.00734049861011e+02°)
2.04173794466952e+02	(2.61984676846785e+01dB,-1.01260441803202e+02°)
2.08929613085403e+02	(2.63823057313453e+01dB,-1.01790751746717e+02°)
2.13796208950222e+02	(2.65652438985631e+01dB,-1.02325116381362e+02°)
2.18776162394954e+02	(2.67472570194489e+01dB,-1.02863667139263e+02°)
2.23872113856832e+02	(2.69283189127234e+01dB,-1.03406529865043e+02°)
2.29086765276776e+02	(2.71084023970155e+01dB,-1.03953824476844e+02°)
2.34422881531991e+02	(2.72874793077277e+01dB,-1.04505664618732e+02°)
2.39883291901947e+02	(2.74655205166756e+01dB,-1.05062157305201e+02°)
2.45470891568501e+02	(2.76424959547174e+01dB,-1.05623402558585e+02°)
2.51188643150956e+02	(2.78183746375876e+01dB,-1.06189493040399e+02°)
2.57039578276885e+02	(2.79931246951448e+01dB,-1.06760513677722e+02°)
2.63026799189536e+02	(2.81667134042399e+01dB,-1.07336541285953e+02°)
2.69153480392690e+02	(2.83391072254011e+01dB,-1.07917644189414e+02°)
2.75422870333815e+02	(2.85102718435250e+01dB,-1.08503881841441e+02°)
2.81838293126443e+02	(2.86801722127456e+01dB,-1.09095304445789e+02°)
2.88403150312659e+02	(2.88487726056411e+01dB,-1.09691952581346e+02°)
2.95120922666637e+02	(2.90160366669152e+01dB,-1.10293856832317e+02°)
3.01995172040200e+02	(2.91819274716703e+01dB,-1.10901037426209e+02°)
3.09029543251357e+02	(2.93464075883620e+01dB,-1.11513503882099e+02°)
3.16227766016836e+02	(2.95094391464941e+01dB,-1.12131254671834e+02°)
3.23593656929626e+02	(2.96709839090839e+01dB,-1.12754276896923e+02°)
3.31131121482589e+02	(2.98310033498873e+01dB,-1.13382545984020e+02°)
3.38844156139200e+02	(2.99894587353355e+01dB,-1.14016025401989e+02°)
3.46736850452529e+02	(3.01463112110935e+01dB,-1.14654666403622e+02°)
3.54813389233573e+02	(3.03015218931030e+01dB,-1.15298407795143e+02°)
3.63078054770099e+02	(3.04550519629254e+01dB,-1.15947175736632e+02°)
3.71535229097170e+02	(3.06068627671498e+01dB,-1.16600883576521e+02°)
3.80189396320558e+02	(3.07569159205816e+01dB,-1.17259431723252e+02°)
3.89045144994278e+02	(3.09051734128695e+01dB,-1.17922707557119e+02°)
3.98107170553494e+02	(3.10515977181811e+01dB,-1.18590585385175e+02°)
4.07380277804110e+02	(3.11961519074795e+01dB,-1.19262926441953e+02°)
4.16869383470332e+02	(3.13387997629062e+01dB,-1.19939578938511e+02°)
4.26579518801589e+02	(3.14795058937199e+01dB,-1.20620378162079e+02°)
4.36515832240163e+02	(3.16182358531996e+01dB,-1.21305146628300e+02°)
4.46683592150960e+02	(3.17549562558725e+01dB,-1.21993694287703e+02°)
4.57088189614872e+02	(3.18896348943903e+01dB,-1.22685818787681e+02°)
4.67735141287195e+02	(3.20222408553439e+01dB,-1.23381305790840e+02°)
4.78630092322635e+02	(3.21527446332798e+01dB,-1.24079929350118e+02°)
4.89778819368442e+02	(3.22811182421598e+01dB,-1.24781452340625e+02°)
5.01187233627268e+02	(3.24073353234965e+01dB,-1.25485626947617e+02°)
5.12861383991361e+02	(3.25313712503912e+01dB,-1.26192195209542e+02°)
5.24807460249769e+02	(3.26532032267073e+01dB,-1.26900889614524e+02°)
5.37031796370249e+02	(3.27728103806284e+01dB,-1.27611433748149e+02°)
5.49540873857620e+02	(3.28901738518712e+01dB,-1.28323542989870e+02°)
5.62341325190345e+02	(3.30052768718625e+01dB,-1.29036925254849e+02°)
5.75439937337152e+02	(3.31181048362285e+01dB,-1.29751281777543e+02°)
5.88843655355584e+02	(3.32286453689996e+01dB,-1.30466307932886e+02°)
6.02559586074353e+02	(3.33368883779951e+01dB,-1.31181694090501e+02°)
6.16595001861477e+02	(3.34428261009198e+01dB,-1.31897126496972e+02°)
6.30957344480188e+02	(3.35464531417818e+01dB,-1.32612288180903e+02°)
6.45654229034650e+02	(3.36477664973225e+01dB,-1.33326859875216e+02°)
6.60693448007591e+02	(3.37467655732347e+01dB,-1.34040520950902e+02°)
6.76082975391976e+02	(3.38434521900380e+01dB,-1.34752950356362e+02°)
6.91830970918931e+02	(3.39378305785693e+01dB,-1.35463827556347e+02°)
7.07945784384132e+02	(3.40299073651408e+01dB,-1.36172833464539e+02°)
7.24435960074984e+02	(3.41196915465106e+01dB,-1.36879651363886e+02°)
